
**** 04/20/16 14:14:35 ******* PSpice 10.5.0 (Jan 2005) ******* ID# 2089943105 
 ** Profile: "SCHEMATIC1-Simul"  [ U:\Mes Documents\Electronique\Mini Projet 2015\TD\td_capteur_amplification-pspicefiles\schematic1\


 ****     CIRCUIT DESCRIPTION


******************************************************************************




** Creating circuit file "Simul.cir" 
** WARNING: THIS AUTOMATICALLY GENERATED FILE MAY BE OVERWRITTEN BY SUBSEQUENT SIMULATIONS

*Libraries: 
* Profile Libraries :
* Local Libraries :
* From [PSPICE NETLIST] section of C:\OrCAD\OrCAD_10.5\tools\PSpice\PSpice.ini file:
.lib "nom.lib" 

*Analysis directives: 
.TRAN  0 1000ns 0 
.PROBE V(alias(*)) I(alias(*)) W(alias(*)) D(alias(*)) NOISE(alias(*)) 
.INC "..\SCHEMATIC1.net" 



**** INCLUDING SCHEMATIC1.net ****
* source TD_CAPTEUR_AMPLIFICATION
R_R2         AN0 N00506  10k  
C_C1         0 +5V  100n  
C_C8         AN0 0  680n  
C_C7         0 N00637  10n  
C_C5         N00637 N00868  47n  
C_C6         N00868 0  10n  
V_V3         N00637 0 2.51Vdc
V_V2         N00868 0 2.5Vdc
V_V1         +5V 0 5Vdc
X_U1         N00637 N00868 N01019 N00939 +5V 0 N00506 0 AD623/AD
R_R1         N00939 N01019  719  

**** RESUMING Simul.cir ****
.END

**** 04/20/16 14:14:35 ******* PSpice 10.5.0 (Jan 2005) ******* ID# 2089943105 
 ** Profile: "SCHEMATIC1-Simul"  [ U:\Mes Documents\Electronique\Mini Projet 2015\TD\td_capteur_amplification-pspicefiles\schematic1\


 ****     Diode MODEL PARAMETERS


******************************************************************************




               X_U1.DX         X_U1.DNOI1      X_U1.DNOI2      
          IS  100.000000E-18   10.000000E-15   10.000000E-15 
          KF                  600.000000E-12   10.000000E-09 
          AF                    1.5                          


**** 04/20/16 14:14:35 ******* PSpice 10.5.0 (Jan 2005) ******* ID# 2089943105 
 ** Profile: "SCHEMATIC1-Simul"  [ U:\Mes Documents\Electronique\Mini Projet 2015\TD\td_capteur_amplification-pspicefiles\schematic1\


 ****     BJT MODEL PARAMETERS


******************************************************************************




               X_U1.QPI        X_U1.QNOX       X_U1.QPOX       X_U1.QPI1       
               PNP             NPN             PNP             PNP             
       LEVEL    1               1               1               1            
          IS  100.000000E-18    6.000000E-15    6.000000E-15  100.000000E-18 
          BF  100             100             112             100            
          NF    1               1               1               1            
         VAF  100             120             120             100            
          BR    1               1               1               1            
          NR    1               1               1               1            
         ISS    0               0               0               0            
          RE    0               0               0               0            
          RC    0              50              50               0            
         CJE    0               0               0               0            
         VJE     .75             .75             .75             .75         
         CJC    0               0               0               0            
         VJC     .75             .75             .75             .75         
         MJC     .33             .33             .33             .33         
        XCJC    1               1               1               1            
         CJS    0               0               0               0            
         VJS     .75             .75             .75             .75         
          KF    0               0               0               0            
          AF    1               1               1               1            
          CN    2.2             2.42            2.2             2.2          
           D     .52             .87             .52             .52         


               X_U1.QPI2       
               PNP             
       LEVEL    1            
          IS  100.000000E-18 
          BF  100            
          NF    1            
         VAF   99.3          
          BR    1            
          NR    1            
         ISS    0            
          RE    0            
          RC    0            
         CJE    0            
         VJE     .75         
         CJC    0            
         VJC     .75         
         MJC     .33         
        XCJC    1            
         CJS    0            
         VJS     .75         
          KF    0            
          AF    1            
          CN    2.2          
           D     .52         


**** 04/20/16 14:14:35 ******* PSpice 10.5.0 (Jan 2005) ******* ID# 2089943105 
 ** Profile: "SCHEMATIC1-Simul"  [ U:\Mes Documents\Electronique\Mini Projet 2015\TD\td_capteur_amplification-pspicefiles\schematic1\


 ****     INITIAL TRANSIENT SOLUTION       TEMPERATURE =   27.000 DEG C


******************************************************************************



 NODE   VOLTAGE     NODE   VOLTAGE     NODE   VOLTAGE     NODE   VOLTAGE


(  +5V)    5.0000  (  AN0)    1.4022  (N00506)    1.4022 (N00637)    2.5100     

(N00868)    2.5000 (N00939)    3.1138 (N01019)    3.1238 (X_U1.97)    0.0000    

(X_U1.98)    2.5000                   (X_U1.A3)    3.1232                       

(X_U1.A4)    3.1132                   (X_U1.B3)    1.9102                       

(X_U1.B4)     .0421                   (X_U1.B5)    2.5467                       

(X_U1.B6)     .0421                   (X_U1.b7)    2.5467                       

(X_U1.B8)    2.5632                   (X_U1.C3)    2.5000                       

(X_U1.C4)     .0421                   (X_U1.C5)    3.1238                       

(X_U1.C6)     .0421                   (X_U1.C8)    3.7599                       

(X_U1.D3)    2.5000                   (X_U1.D4)     .0421                       

(X_U1.D5)    3.1138                   (X_U1.D6)     .0421                       

(X_U1.D8)    3.7499                   (X_U1.103)    3.8168                      

(X_U1.104)    2.4159                  (X_U1.201)    1.9097                      

(X_U1.202)    1.9103                  (X_U1.B20)    2.5000                      

(X_U1.B21)    2.5000                  (X_U1.B30)    2.5003                      

(X_U1.B31)    3.1003                  (X_U1.B32)    1.9003                      

(X_U1.B41)    4.4035                  (X_U1.B42)    4.4061                      

(X_U1.B43)    4.9984                  (X_U1.B44)     .5991                      

(X_U1.B46)     .0019                  (X_U1.B47)     .5965                      

(X_U1.B51)    3.1400                  (X_U1.B52)    2.5000                      

(X_U1.B53)    2.4994                  (X_U1.C20)    2.5000                      

(X_U1.C30)    2.4976                  (X_U1.C31)    3.0976                      

(X_U1.C32)    1.8976                  (X_U1.C41)    4.4035                      

(X_U1.C42)    4.3913                  (X_U1.C43)    4.9973                      

(X_U1.C44)     .5843                  (X_U1.C46)     .0012                      

(X_U1.C47)     .5965                  (X_U1.C51)    3.1400                      

(X_U1.C52)    2.5000                  (X_U1.C53)    2.4994                      

(X_U1.D20)    2.5000                  (X_U1.D30)    2.5002                      

(X_U1.D31)    3.1002                  (X_U1.D32)    1.9002                      

(X_U1.D41)    4.4035                  (X_U1.D42)    4.4044                      

(X_U1.D43)    4.9983                  (X_U1.D44)     .5974                      

(X_U1.D46)     .0018                  (X_U1.D47)     .5965                      

(X_U1.D51)    3.1400                  (X_U1.D52)    2.5000                      

(X_U1.D53)    2.4994                  




    VOLTAGE SOURCE CURRENTS
    NAME         CURRENT

    V_V3         1.978E-08
    V_V2         1.978E-08
    V_V1        -3.604E-04
    X_U1.VN1B   -5.578E-04
    X_U1.VMEASB   5.578E-04
    X_U1.V1B     1.900E-12
    X_U1.V2B     1.900E-12
    X_U1.VBI01B  -4.716E-07
    X_U1.VBIO2B  -6.388E-07
    X_U1.VN1C   -5.578E-04
    X_U1.VMEASC   5.578E-04
    X_U1.V1C     1.903E-12
    X_U1.V2C     1.898E-12
    X_U1.VBI01C  -8.013E-07
    X_U1.VBIO2C  -3.717E-07
    X_U1.VN1D   -5.578E-04
    X_U1.VMEASD   5.578E-04
    X_U1.V1D     1.900E-12
    X_U1.V2D     1.900E-12
    X_U1.VBI01D  -5.018E-07
    X_U1.VBIO2D  -6.006E-07

    TOTAL POWER DISSIPATION   2.88E-03  WATTS



          JOB CONCLUDED

**** 04/20/16 14:14:35 ******* PSpice 10.5.0 (Jan 2005) ******* ID# 2089943105 
 ** Profile: "SCHEMATIC1-Simul"  [ U:\Mes Documents\Electronique\Mini Projet 2015\TD\td_capteur_amplification-pspicefiles\schematic1\


 ****     JOB STATISTICS SUMMARY


******************************************************************************



  Total job time (using Solver 1)   =         .08
